2 stage op-amp open loop  02/16/88 
#           iter(0)    v(1)       v(2)       v(3)       v(4)       v(5)      
+ v(6)       v(7)       v(8)       v(9)      
 300.15     16.        0.         0.         0.87496    0.87507   -1.1707    
+-0.056905  -1.6303    -2.5        2.5       
vdb(6) 0.                20.              40.               60.             80.
vp(6)-180.              -90.              0.                90.            180.
        +-----------------+----------------+-----------------+----------------+
 1.     |                 .                +                 *                |
 1.5849 |                 .               +.                 *                |
 2.5119 |                 .               +.                 *                |
 3.9811 |                 .              + .                 *                |
 6.3096 |                 .             +  .                 *                |
 10.    |                 .            +   .                *.                |
 15.849 |                 .          +     .                *.                |
 25.119 |                 .       +        .              *  .                |
 39.811 |                 .     +          .            *    .                |
 63.096 |                 .   +            .         *       .                |
 100.   |                 . +              .      *          .                |
 158.49 |                 .+               .   *             .                |
 251.19 |                 +                *                 .                |
 398.11 |                 +             *  .                 .                |
 630.96 |                 +         *      .                 .                |
 1.K    |                +.      *         .                 .                |
 1.5849K|                +.  *             .                 .                |
 2.5119K|                +*                .                 .                |
 3.9811K|             * + .                .                 .                |
 6.3096K|          *   +  .                .                 .                |
 10.K   |      *      +   .                .                 .                |
 15.849K|  *        +     .                .                 .                |
 25.119K*        +        .                .                 .                |
 39.811K*    +            .                .                 .                |
 63.096K*+                .                .                 .                |
 100.K  *                 .                .                 .             +  |
 158.49K*                 .                .                 .         +      |
 251.19K*                 .                .                 .      +         |
 398.11K*                 .                .                 .   +            |
 630.96K*                 .                .                 . +              |
 1.Meg  *                 .                .                 .+               |
 1.5849M*                 .                .                +.                |
 2.5119M*                 .                .               + .                |
 3.9811M*                 .                .              +  .                |
 6.3096M*                 .                .             +   .                |
 10.Meg *                 .                .            +    .                |
        +-----------------+----------------+-----------------+----------------+
v(6)  -4.               -2.               0.                2.               4.
        +-----------------+----------------+-----------------+----------------+
-500.u  |                 .  *             .                 .                |
-480.u  |                 .   *            .                 .                |
-460.u  |                 .   *            .                 .                |
-440.u  |                 .    *           .                 .                |
-420.u  |                 .    *           .                 .                |
-400.u  |                 .     *          .                 .                |
-380.u  |                 .     *          .                 .                |
-360.u  |                 .      *         .                 .                |
-340.u  |                 .      *         .                 .                |
-320.u  |                 .       *        .                 .                |
-300.u  |                 .       *        .                 .                |
-280.u  |                 .        *       .                 .                |
-260.u  |                 .        *       .                 .                |
-240.u  |                 .         *      .                 .                |
-220.u  |                 .         *      .                 .                |
-200.u  |                 .          *     .                 .                |
-180.u  |                 .          *     .                 .                |
-160.u  |                 .           *    .                 .                |
-140.u  |                 .            *   .                 .                |
-120.u  |                 .            *   .                 .                |
-100.u  |                 .             *  .                 .                |
-80.u   |                 .             *  .                 .                |
-60.u   |                 .              * .                 .                |
-40.u   |                 .              * .                 .                |
-20.u   |                 .               *.                 .                |
 0.     |                 .               *.                 .                |
 20.u   |                 .                *                 .                |
 40.u   |                 .                .*                .                |
 60.u   |                 .                .*                .                |
 80.u   |                 .                . *               .                |
 100.u  |                 .                . *               .                |
 120.u  |                 .                .  *              .                |
 140.u  |                 .                .   *             .                |
 160.u  |                 .                .   *             .                |
 180.u  |                 .                .    *            .                |
 200.u  |                 .                .    *            .                |
 220.u  |                 .                .     *           .                |
 240.u  |                 .                .      *          .                |
 260.u  |                 .                .      *          .                |
 280.u  |                 .                .       *         .                |
 300.u  |                 .                .        *        .                |
 320.u  |                 .                .        *        .                |
 340.u  |                 .                .         *       .                |
 360.u  |                 .                .         *       .                |
 380.u  |                 .                .          *      .                |
 400.u  |                 .                .           *     .                |
 420.u  |                 .                .           *     .                |
 440.u  |                 .                .            *    .                |
 460.u  |                 .                .             *   .                |
 480.u  |                 .                .             *   .                |
 500.u  |                 .                .              *  .                |
        +-----------------+----------------+-----------------+----------------+
#Time       v(Vin)     v(6)      
 0.         0.        -0.056889  
 31.25u     0.097545   0.31919   
 62.5u      0.19134    1.5498    
 93.75u     0.27779    2.4906    
 125.u      0.35355    2.4984    
 156.25u    0.41573    2.4854    
 187.5u     0.46194    2.4862    
 218.75u    0.49039    2.4944    
 250.u      0.5        2.4867    
 281.25u    0.49039    2.4942    
 312.5u     0.46194    2.487     
 343.75u    0.41573    2.4939    
 375.u      0.35355    2.487     
 406.25u    0.27779    2.4936    
 437.5u     0.19134    2.4869    
 468.75u    0.097545   2.4931    
 500.u      4.3759f    2.4865    
 531.25u   -0.097545   2.4937    
 562.5u    -0.19134    2.3457    
 593.75u   -0.27779    2.0883    
 625.u     -0.35355    1.4183    
 656.25u   -0.41573    0.79418   
 687.5u    -0.46194    0.25048   
 718.75u   -0.49039   -0.22321   
 750.u     -0.5       -0.63749   
 781.25u   -0.49039   -0.99542   
 812.5u    -0.46194   -1.3093    
 843.75u   -0.41573   -1.58      
 875.u     -0.35355   -1.8171    
 906.25u   -0.27779   -2.0215    
 937.5u    -0.19134   -2.2008    
 968.75u   -0.097545  -2.3571    
 0.001     -4.2166f   -2.441     
#Time       v(Vin)     v(6)      
 0.001     -4.2166f   -2.441     
 0.0010313  0.097545  -2.4766    
 0.0010625  0.19134   -2.0796    
 0.0010938  0.27779   -0.32139   
 0.001125   0.35355    1.6915    
 0.0011563  0.41573    2.4875    
 0.0011875  0.46194    2.4952    
 0.0012188  0.49039    2.4877    
 0.00125    0.5        2.4882    
 0.0012813  0.49039    2.4928    
 0.0013125  0.46194    2.4883    
 0.0013438  0.41573    2.4926    
 0.001375   0.35355    2.4883    
 0.0014063  0.27779    2.4923    
 0.0014375  0.19134    2.4881    
 0.0014688  0.097545   2.4919    
 0.0015    -2.9428f    2.4877    
 0.0015313 -0.097545   2.4922    
 0.0015625 -0.19134    2.3556    
 0.0015938 -0.27779    2.0613    
 0.001625  -0.35355    1.399     
 0.0016563 -0.41573    0.77735   
 0.0016875 -0.46194    0.23581   
 0.0017188 -0.49039   -0.23601   
 0.00175   -0.5       -0.64866   
 0.0017813 -0.49039   -1.0051    
 0.0018125 -0.46194   -1.3177    
 0.0018438 -0.41573   -1.5874    
 0.001875  -0.35355   -1.8235    
 0.0019063 -0.27779   -2.027     
 0.0019375 -0.19134   -2.2056    
 0.0019688 -0.097545  -2.3608    
 0.002      3.0021f   -2.4418    
# v(Vin)    --------- actual ---------  -------- relative --------
#freq       value        dB      phase  value        dB      phase
 0.         127.5E-18 -317.89  -90.000  254.9E-18 -311.87  -90.000
 1.K        0.5         -6.02    0.000  1.           0.00    0.000
 2.K        927.1E-18 -300.66  124.874  1.8543f   -294.64  124.874
 3.K        1.2955f   -297.75  -65.194  2.591f    -291.73  -65.194
 4.K        1.2708f   -297.92  -20.152  2.5417f   -291.90  -20.152
 5.K        884.E-18  -301.07 -108.117  1.7679f   -295.05 -108.117
 6.K        1.1234f   -298.99  -88.900  2.2468f   -292.97  -88.900
 7.K        955.5E-18 -300.40  -53.001  1.911f    -294.37  -53.001
 8.K        530.E-18  -305.51 -110.099  1.0601f   -299.49 -110.099
 9.K        1.0484f   -299.59 -103.492  2.0968f   -293.57 -103.492
 10.K       90.39E-18 -320.88   83.183  180.8E-18 -314.86   83.183
# v(6)      --------- actual ---------  -------- relative --------
#freq       value        dB      phase  value        dB      phase
 0.         0.63635     -3.93   90.000  0.2458     -12.19  144.293
 1.K        2.5889       8.26  -54.293  1.           0.00    0.000
 2.K        0.68047     -3.34  -49.088  0.26284    -11.61    5.205
 3.K        0.57051     -4.87 -115.821  0.22036    -13.14  -61.528
 4.K        0.29255    -10.68 -129.162  0.113      -18.94  -74.869
 5.K        0.25671    -11.81  177.424  0.099157   -20.07 -128.282
 6.K        0.14672    -16.67  154.476  0.056674   -24.93 -151.231
 7.K        0.12785    -17.87  106.391  0.049382   -26.13  160.684
 8.K        0.074954   -22.50   80.127  0.028952   -30.77  134.420
 9.K        0.060733   -24.33   34.317  0.023459   -32.59   88.610
 10.K       0.034452   -29.26   13.712  0.013308   -37.52   68.005
